
T0B24 000:367 SEGGER J-Link V5.10h Log File (0001ms, 0330ms total)
T0B24 000:367 DLL Compiled: Jan 21 2016 19:24:29 (0001ms, 0330ms total)
T0B24 000:367 Logging started @ 2019-07-10 11:16 (0001ms, 0330ms total)
T0B24 000:368 JLINK_SetWarnOutHandler(...) (0000ms, 0330ms total)
T0B24 000:368 JLINK_OpenEx(...)
Firmware: J-Link V9 compiled Oct 25 2018 11:46:07
Hardware: V9.60
S/N: 63631261
Feature(s): RDI, GDB, FlashDL, FlashBP, JFlash  returns O.K. (0298ms, 0628ms total)
T0B24 000:666 JLINK_SetErrorOutHandler(...) (0000ms, 0628ms total)
T0B24 000:666 JLINK_ExecCommand("ProjectFile = "D:\10-Chip_learning\3-实时操作系统uCOSII\1. 移植好的操作系统\野火M3-uCOS-II\3-野火M3-uCOS-II+串口ABC（多任务）\USER\JLinkSettings.ini"", ...)  returns 0x00 (0002ms, 0630ms total)
T0B24 000:668 JLINK_ExecCommand("Device = STM32F103VE", ...)Device "STM32F103VE" selected.  returns 0x00 (0002ms, 0632ms total)
T0B24 000:670 JLINK_ExecCommand("DisableConnectionTimeout", ...)  returns 0x01 (0000ms, 0632ms total)
T0B24 000:670 JLINK_GetHardwareVersion()  returns 0x17700 (0000ms, 0632ms total)
T0B24 000:670 JLINK_GetDLLVersion()  returns 51008 (0000ms, 0632ms total)
T0B24 000:670 JLINK_GetFirmwareString(...) (0000ms, 0632ms total)
T0B24 000:670 JLINK_GetDLLVersion()  returns 51008 (0000ms, 0632ms total)
T0B24 000:670 JLINK_GetCompileDateTime() (0000ms, 0632ms total)
T0B24 000:670 JLINK_GetFirmwareString(...) (0000ms, 0632ms total)
T0B24 000:670 JLINK_GetHardwareVersion()  returns 0x17700 (0000ms, 0632ms total)
T0B24 000:670 JLINK_TIF_Select(JLINKARM_TIF_JTAG)  returns 0x00 (0006ms, 0638ms total)
T0B24 000:676 JLINK_SetSpeed(5000) (0001ms, 0639ms total)
T0B24 000:677 JLINK_GetIdData(...) >0x2F8 JTAG>TotalIRLen = 9, IRPrint = 0x0011 >0x30 JTAG> >0x210 JTAG> >0x40 JTAG> >0x40 JTAG> >0x40 JTAG> >0x30 JTAG> >0x40 JTAG> >0x40 JTAG> >0x40 JTAG> >0x40 JTAG> >0x40 JTAG> >0x40 JTAG> >0x40 JTAG> >0x40 JTAG> >0x40 JTAG> >0x40 JTAG> >0x40 JTAG> >0x40 JTAG> >0x40 JTAG> >0x40 JTAG> >0x2F8 JTAG>TotalIRLen = 9, IRPrint = 0x0011 >0x30 JTAG> >0x210 JTAG> >0x70 JTAG> >0x50 JTAG> >0x40 JTAG> >0x50 JTAG> >0x80 JTAG> >0x40 JTAG> >0x30 JTAG> >0x40 JTAG> >0x40 JTAG>
 >0x30 JTAG> >0x40 JTAG> >0x50 JTAG>Found Cortex-M3 r1p1, Little endian. -- CPU_ReadMem(4 bytes @ 0xE000EDF0) -- CPU_ReadMem(4 bytes @ 0xE0002000)FPUnit: 6 code (BP) slots and 2 literal slots -- CPU_ReadMem(4 bytes @ 0xE000EDFC) -- CPU_ReadMem(4 bytes @ 0xE0001000) -- CPU_WriteMem(4 bytes @ 0xE0001000) -- CPU_ReadMem(4 bytes @ 0xE000ED88) -- CPU_WriteMem(4 bytes @ 0xE000ED88) -- CPU_ReadMem(4 bytes @ 0xE000ED88) -- CPU_WriteMem(4 bytes @ 0xE000ED88)CoreSight components:ROMTbl 0 @ E00FF000
 -- CPU_ReadMem(16 bytes @ 0xE00FF000) -- CPU_ReadMem(16 bytes @ 0xE000EFF0) -- CPU_ReadMem(16 bytes @ 0xE000EFE0)ROMTbl 0 [0]: FFF0F000, CID: B105E00D, PID: 001BB000 SCS -- CPU_ReadMem(16 bytes @ 0xE0001FF0) -- CPU_ReadMem(16 bytes @ 0xE0001FE0)ROMTbl 0 [1]: FFF02000, CID: B105E00D, PID: 001BB002 DWT -- CPU_ReadMem(16 bytes @ 0xE0002FF0) -- CPU_ReadMem(16 bytes @ 0xE0002FE0)ROMTbl 0 [2]: FFF03000, CID: B105E00D, PID: 000BB003 FPB -- CPU_ReadMem(16 bytes @ 0xE0000FF0)
 -- CPU_ReadMem(16 bytes @ 0xE0000FE0)ROMTbl 0 [3]: FFF01000, CID: B105E00D, PID: 001BB001 ITM -- CPU_ReadMem(16 bytes @ 0xE00FF010) -- CPU_ReadMem(16 bytes @ 0xE0040FF0) -- CPU_ReadMem(16 bytes @ 0xE0040FE0)ROMTbl 0 [4]: FFF41000, CID: B105900D, PID: 001BB923 TPIU-Lite -- CPU_ReadMem(16 bytes @ 0xE0041FF0) -- CPU_ReadMem(16 bytes @ 0xE0041FE0)ROMTbl 0 [5]: FFF42000, CID: B105900D, PID: 101BB924 ETM-M3 ScanLen=9 NumDevices=2 aId[0]=0x3BA00477 aIrRead[0]=0 aScanLen[0]=0 aScanRead[0]=0
 (0068ms, 0707ms total)
T0B24 000:745 JLINK_JTAG_GetDeviceID(DeviceIndex = 0)  returns 0x3BA00477 (0000ms, 0707ms total)
T0B24 000:745 JLINK_JTAG_GetDeviceInfo(DeviceIndex = 0)  returns 0x00 (0000ms, 0707ms total)
T0B24 000:745 JLINK_JTAG_GetDeviceID(DeviceIndex = 1)  returns 0x6414041 (0000ms, 0707ms total)
T0B24 000:745 JLINK_JTAG_GetDeviceInfo(DeviceIndex = 1)  returns 0x00 (0000ms, 0707ms total)
T0B24 000:745 JLINK_GetDLLVersion()  returns 51008 (0000ms, 0707ms total)
T0B24 000:745 JLINK_CORE_GetFound()  returns 0x30000FF (0000ms, 0707ms total)
T0B24 000:745 JLINK_GetDebugInfo(0x100) -- Value=0xE00FF003  returns 0x00 (0000ms, 0707ms total)
T0B24 000:745 JLINK_GetDebugInfo(0x100) -- Value=0xE00FF003  returns 0x00 (0000ms, 0707ms total)
T0B24 000:745 JLINK_GetDebugInfo(0x101) -- Value=0xE0041000  returns 0x00 (0000ms, 0707ms total)
T0B24 000:745 JLINK_GetDebugInfo(0x102) -- Value=0x00000000  returns 0x00 (0000ms, 0707ms total)
T0B24 000:745 JLINK_GetDebugInfo(0x103) -- Value=0xE0040000  returns 0x00 (0000ms, 0707ms total)
T0B24 000:745 JLINK_GetDebugInfo(0x104) -- Value=0xE0000000  returns 0x00 (0000ms, 0707ms total)
T0B24 000:745 JLINK_GetDebugInfo(0x105) -- Value=0xE0001000  returns 0x00 (0000ms, 0707ms total)
T0B24 000:745 JLINK_GetDebugInfo(0x106) -- Value=0xE0002000  returns 0x00 (0000ms, 0707ms total)
T0B24 000:745 JLINK_GetDebugInfo(0x107) -- Value=0xE000E000  returns 0x00 (0000ms, 0707ms total)
T0B24 000:745 JLINK_GetDebugInfo(0x10C) -- Value=0xE000EDF0  returns 0x00 (0000ms, 0707ms total)
T0B24 000:745 JLINK_ReadMemU32(0xE000ED00, 0x0001 Items, ...) -- CPU is running -- CPU_ReadMem(4 bytes @ 0xE000ED00) - Data: 31 C2 1F 41  returns 0x01 (0001ms, 0708ms total)
T0B24 000:746 JLINK_SetResetType(JLINKARM_RESET_TYPE_NORMAL)  returns JLINKARM_RESET_TYPE_NORMAL (0000ms, 0708ms total)
T0B24 000:746 JLINK_Reset() -- CPU is running -- CPU_WriteMem(4 bytes @ 0xE000EDF0) -- CPU is running -- CPU_WriteMem(4 bytes @ 0xE000EDFC) -- CPU is running -- CPU_WriteMem(4 bytes @ 0xE000ED0C) -- CPU is running -- CPU_ReadMem(4 bytes @ 0xE000EDF0) -- CPU is running -- CPU_ReadMem(4 bytes @ 0xE000EDF0) -- CPU is running -- CPU_WriteMem(4 bytes @ 0xE000EDF0) -- CPU is running -- CPU_WriteMem(4 bytes @ 0xE000EDFC) -- CPU is running -- CPU_ReadMem(4 bytes @ 0xE000EDF0) >0x80 JTAG> >0x40 JTAG> >0x30 JTAG>
 >0x40 JTAG> >0x50 JTAG> >0x40 JTAG> -- CPU_WriteMem(4 bytes @ 0xE000EDFC) -- CPU_WriteMem(4 bytes @ 0xE0001028) -- CPU_WriteMem(4 bytes @ 0xE0001038) -- CPU_WriteMem(4 bytes @ 0xE0001048) -- CPU_WriteMem(4 bytes @ 0xE0001058) -- CPU_WriteMem(4 bytes @ 0xE0002000) -- CPU_ReadMem(4 bytes @ 0xE000EDFC) -- CPU_ReadMem(4 bytes @ 0xE0001000) (0043ms, 0751ms total)
T0B24 000:789 JLINK_ReadReg(R15 (PC))  returns 0x08000146 (0000ms, 0751ms total)
T0B24 000:789 JLINK_ReadReg(XPSR)  returns 0x01000000 (0000ms, 0751ms total)
T0B24 000:789 JLINK_Halt()  returns 0x00 (0000ms, 0751ms total)
T0B24 000:789 JLINK_IsHalted()  returns TRUE (0000ms, 0751ms total)
T0B24 000:789 JLINK_ReadMemU32(0xE000EDF0, 0x0001 Items, ...) -- CPU_ReadMem(4 bytes @ 0xE000EDF0) - Data: 03 00 03 00  returns 0x01 (0002ms, 0753ms total)
T0B24 000:791 JLINK_WriteU32(0xE000EDF0, 0xA05F0003) -- CPU_WriteMem(4 bytes @ 0xE000EDF0)  returns 0x00 (0001ms, 0754ms total)
T0B24 000:792 JLINK_WriteU32(0xE000EDFC, 0x01000000) -- CPU_WriteMem(4 bytes @ 0xE000EDFC)  returns 0x00 (0001ms, 0755ms total)
T0B24 000:793 JLINK_GetHWStatus(...)  returns 0x00 (0001ms, 0756ms total)
T0B24 000:794 JLINK_GetNumBPUnits(Type = 0xFFFFFF00)  returns 0x06 (0000ms, 0756ms total)
T0B24 000:794 JLINK_GetNumBPUnits(Type = 0xF0)  returns 0x2000 (0000ms, 0756ms total)
T0B24 000:794 JLINK_GetNumWPUnits()  returns 0x04 (0000ms, 0756ms total)
T0B24 000:794 JLINK_GetSpeed()  returns 0x1388 (0000ms, 0756ms total)
T0B24 000:794 JLINK_ReadMemU32(0xE000E004, 0x0001 Items, ...) -- CPU_ReadMem(4 bytes @ 0xE000E004) - Data: 01 00 00 00  returns 0x01 (0001ms, 0757ms total)
T0B24 000:795 JLINK_ReadMemU32(0xE000E004, 0x0001 Items, ...) -- CPU_ReadMem(4 bytes @ 0xE000E004) - Data: 01 00 00 00  returns 0x01 (0001ms, 0758ms total)
T0B24 000:796 JLINK_WriteMem(0xE0001000, 0x001C Bytes, ...) - Data: 01 00 00 00 00 00 00 00 00 00 00 00 00 00 00 00 ... -- CPU_WriteMem(28 bytes @ 0xE0001000)  returns 0x1C (0003ms, 0761ms total)
T0B24 000:799 JLINK_ReadMem (0xE0001000, 0x001C Bytes, ...) -- CPU_ReadMem(28 bytes @ 0xE0001000) - Data: 01 00 00 40 00 00 00 00 00 00 00 00 00 00 00 00 ...  returns 0x00 (0001ms, 0762ms total)
T0B24 000:800 JLINK_ReadReg(R15 (PC))  returns 0x08000146 (0000ms, 0762ms total)
T0B24 000:800 JLINK_ReadReg(XPSR)  returns 0x01000000 (0000ms, 0762ms total)
T0B24 000:912 JLINK_SetResetType(JLINKARM_RESET_TYPE_NORMAL)  returns JLINKARM_RESET_TYPE_NORMAL (0000ms, 0762ms total)
T0B24 000:912 JLINK_Reset() -- CPU_WriteMem(4 bytes @ 0xE000EDF0) -- CPU_WriteMem(4 bytes @ 0xE000EDFC) -- CPU_WriteMem(4 bytes @ 0xE000ED0C) -- CPU_ReadMem(4 bytes @ 0xE000EDF0) -- CPU_ReadMem(4 bytes @ 0xE000EDF0) -- CPU_WriteMem(4 bytes @ 0xE000EDF0) -- CPU_WriteMem(4 bytes @ 0xE000EDFC) -- CPU is running -- CPU_ReadMem(4 bytes @ 0xE000EDF0) >0x80 JTAG> >0x40 JTAG> >0x30 JTAG> >0x40 JTAG> >0x50 JTAG> >0x40 JTAG> -- CPU_WriteMem(4 bytes @ 0xE000EDFC) -- CPU_WriteMem(4 bytes @ 0xE0001028)
 -- CPU_WriteMem(4 bytes @ 0xE0001038) -- CPU_WriteMem(4 bytes @ 0xE0001048) -- CPU_WriteMem(4 bytes @ 0xE0001058) -- CPU_WriteMem(4 bytes @ 0xE0002000) -- CPU_ReadMem(4 bytes @ 0xE000EDFC) -- CPU_ReadMem(4 bytes @ 0xE0001000) (0039ms, 0801ms total)
T0B24 000:951 JLINK_ReadReg(R15 (PC))  returns 0x08000146 (0000ms, 0801ms total)
T0B24 000:951 JLINK_ReadReg(XPSR)  returns 0x01000000 (0000ms, 0801ms total)
T0B24 000:952 JLINK_ReadMemU32(0xE0001004, 0x0001 Items, ...) -- CPU_ReadMem(4 bytes @ 0xE0001004) - Data: F0 07 00 00  returns 0x01 (0000ms, 0801ms total)
T0B24 001:267 JLINK_ReadMem (0x08000146, 0x0002 Bytes, ...) -- CPU_ReadMem(64 bytes @ 0x08000140) -- Updating C cache (64 bytes @ 0x08000140) -- Read from C cache (2 bytes @ 0x08000146) - Data: 08 48  returns 0x00 (0001ms, 0802ms total)
T0B24 001:268 JLINK_ReadMem (0x08000148, 0x003C Bytes, ...) -- CPU_ReadMem(64 bytes @ 0x08000180) -- Updating C cache (64 bytes @ 0x08000180) -- Read from C cache (60 bytes @ 0x08000148) - Data: 80 47 08 49 81 F3 08 88 07 48 00 47 FE E7 FE E7 ...  returns 0x00 (0001ms, 0803ms total)
T21E8 003:069 JLINK_SetBPEx(Addr = 0x08000174, Type = 0xFFFFFFF2)  returns 0x00000001 (0000ms, 0803ms total)
T21E8 003:069 JLINK_Go() -- CPU_ReadMem(4 bytes @ 0xE0001000) -- CPU_WriteMem(4 bytes @ 0xE0002008) -- CPU_WriteMem(4 bytes @ 0xE000200C) -- CPU_WriteMem(4 bytes @ 0xE0002010) -- CPU_WriteMem(4 bytes @ 0xE0002014) -- CPU_WriteMem(4 bytes @ 0xE0002018) -- CPU_WriteMem(4 bytes @ 0xE000201C) -- CPU_WriteMem(4 bytes @ 0xE0001004) (0006ms, 0809ms total)
T21E8 003:175 JLINK_IsHalted()  returns TRUE (0003ms, 0812ms total)
T21E8 003:178 JLINK_Halt()  returns 0x00 (0000ms, 0809ms total)
T21E8 003:178 JLINK_IsHalted()  returns TRUE (0000ms, 0809ms total)
T21E8 003:178 JLINK_IsHalted()  returns TRUE (0000ms, 0809ms total)
T21E8 003:178 JLINK_IsHalted()  returns TRUE (0000ms, 0809ms total)
T21E8 003:178 JLINK_ReadReg(R15 (PC))  returns 0x08000174 (0000ms, 0809ms total)
T21E8 003:178 JLINK_ReadReg(XPSR)  returns 0x61000000 (0000ms, 0809ms total)
T21E8 003:178 JLINK_ClrBPEx(BPHandle = 0x00000001)  returns 0x00 (0000ms, 0809ms total)
T21E8 003:178 JLINK_ReadMemU32(0xE000ED30, 0x0001 Items, ...) -- CPU_ReadMem(4 bytes @ 0xE000ED30) - Data: 02 00 00 00  returns 0x01 (0001ms, 0810ms total)
T21E8 003:179 JLINK_ReadMemU32(0xE0001028, 0x0001 Items, ...) -- CPU_ReadMem(4 bytes @ 0xE0001028) - Data: 00 00 00 00  returns 0x01 (0001ms, 0811ms total)
T21E8 003:180 JLINK_ReadMemU32(0xE0001038, 0x0001 Items, ...) -- CPU_ReadMem(4 bytes @ 0xE0001038) - Data: 00 02 00 00  returns 0x01 (0001ms, 0812ms total)
T21E8 003:181 JLINK_ReadMemU32(0xE0001048, 0x0001 Items, ...) -- CPU_ReadMem(4 bytes @ 0xE0001048) - Data: 00 00 00 00  returns 0x01 (0001ms, 0813ms total)
T21E8 003:182 JLINK_ReadMemU32(0xE0001058, 0x0001 Items, ...) -- CPU_ReadMem(4 bytes @ 0xE0001058) - Data: 00 00 00 00  returns 0x01 (0001ms, 0814ms total)
T21E8 003:183 JLINK_ReadReg(R0)  returns 0x08000175 (0000ms, 0814ms total)
T21E8 003:183 JLINK_ReadReg(R1)  returns 0x20001210 (0000ms, 0814ms total)
T21E8 003:183 JLINK_ReadReg(R2)  returns 0x00000000 (0000ms, 0814ms total)
T21E8 003:183 JLINK_ReadReg(R3)  returns 0x0800235D (0000ms, 0814ms total)
T21E8 003:183 JLINK_ReadReg(R4)  returns 0x080024C0 (0000ms, 0814ms total)
T21E8 003:183 JLINK_ReadReg(R5)  returns 0x080024C0 (0000ms, 0814ms total)
T21E8 003:183 JLINK_ReadReg(R6)  returns 0x06060606 (0000ms, 0814ms total)
T21E8 003:183 JLINK_ReadReg(R7)  returns 0x07070707 (0000ms, 0814ms total)
T21E8 003:183 JLINK_ReadReg(R8)  returns 0x08080808 (0000ms, 0814ms total)
T21E8 003:183 JLINK_ReadReg(R9)  returns 0x09090909 (0000ms, 0814ms total)
T21E8 003:183 JLINK_ReadReg(R10)  returns 0x10101010 (0000ms, 0814ms total)
T21E8 003:183 JLINK_ReadReg(R11)  returns 0x11111111 (0000ms, 0814ms total)
T21E8 003:183 JLINK_ReadReg(R12)  returns 0x12121212 (0000ms, 0814ms total)
T21E8 003:183 JLINK_ReadReg(R13 (SP))  returns 0x20001210 (0000ms, 0814ms total)
T21E8 003:183 JLINK_ReadReg(R14)  returns 0x08002335 (0000ms, 0814ms total)
T21E8 003:183 JLINK_ReadReg(R15 (PC))  returns 0x08000174 (0000ms, 0814ms total)
T21E8 003:183 JLINK_ReadReg(XPSR)  returns 0x61000000 (0000ms, 0814ms total)
T21E8 003:183 JLINK_ReadReg(MSP)  returns 0x20001210 (0000ms, 0814ms total)
T21E8 003:183 JLINK_ReadReg(PSP)  returns 0x200008E0 (0000ms, 0814ms total)
T21E8 003:183 JLINK_ReadReg(CFBP)  returns 0x00000000 (0000ms, 0814ms total)
T0B24 003:187 JLINK_ReadMemU32(0xE0001004, 0x0001 Items, ...) -- CPU_ReadMem(4 bytes @ 0xE0001004) - Data: 8F 1B 00 00  returns 0x01 (0001ms, 0815ms total)
T0B24 003:189 JLINK_ReadMem (0x08000130, 0x003C Bytes, ...) -- CPU_ReadMem(128 bytes @ 0x08000100) -- Updating C cache (128 bytes @ 0x08000100) -- Read from C cache (60 bytes @ 0x08000130) - Data: DF F8 0C D0 02 F0 F0 F8 00 48 00 47 75 01 00 08 ...  returns 0x00 (0002ms, 0817ms total)
T0B24 003:191 JLINK_ReadMem (0x08000172, 0x0002 Bytes, ...) -- Read from C cache (2 bytes @ 0x08000172) - Data: 00 08  returns 0x00 (0000ms, 0817ms total)
T0B24 003:191 JLINK_ReadMem (0x08000174, 0x003C Bytes, ...) -- CPU_ReadMem(64 bytes @ 0x08000180) -- Updating C cache (64 bytes @ 0x08000180) -- Read from C cache (60 bytes @ 0x08000174) - Data: 10 B5 00 F0 79 FE 01 F0 5E F8 04 23 04 4A 00 21 ...  returns 0x00 (0001ms, 0818ms total)
T0B24 038:391 JLINK_ReadMem (0x08002206, 0x0002 Bytes, ...) -- CPU_ReadMem(64 bytes @ 0x08002200) -- Updating C cache (64 bytes @ 0x08002200) -- Read from C cache (2 bytes @ 0x08002206) - Data: 72 B6  returns 0x00 (0002ms, 0820ms total)
T0B24 038:393 JLINK_ReadMem (0x08002208, 0x003C Bytes, ...) -- CPU_ReadMem(64 bytes @ 0x08002240) -- Updating C cache (64 bytes @ 0x08002240) -- Read from C cache (60 bytes @ 0x08002208) - Data: EF F3 09 80 28 B1 20 38 80 E8 F0 0F 0F 49 09 68 ...  returns 0x00 (0002ms, 0822ms total)
T0B24 044:035 JLINK_SetResetType(JLINKARM_RESET_TYPE_NORMAL)  returns JLINKARM_RESET_TYPE_NORMAL (0000ms, 0822ms total)
T0B24 044:035 JLINK_Reset() -- CPU_WriteMem(4 bytes @ 0xE000EDF0) -- CPU_WriteMem(4 bytes @ 0xE000EDFC) -- CPU_WriteMem(4 bytes @ 0xE000ED0C) -- CPU_ReadMem(4 bytes @ 0xE000EDF0) -- CPU_ReadMem(4 bytes @ 0xE000EDF0) -- CPU_WriteMem(4 bytes @ 0xE000EDF0) -- CPU_WriteMem(4 bytes @ 0xE000EDFC) -- CPU is running -- CPU_ReadMem(4 bytes @ 0xE000EDF0) >0x80 JTAG> >0x40 JTAG> >0x30 JTAG> >0x40 JTAG> >0x50 JTAG> >0x40 JTAG> -- CPU_WriteMem(4 bytes @ 0xE000EDFC) -- CPU_WriteMem(4 bytes @ 0xE0001028)
 -- CPU_WriteMem(4 bytes @ 0xE0001038) -- CPU_WriteMem(4 bytes @ 0xE0001048) -- CPU_WriteMem(4 bytes @ 0xE0001058) -- CPU_WriteMem(4 bytes @ 0xE0002000) -- CPU_ReadMem(4 bytes @ 0xE000EDFC) -- CPU_ReadMem(4 bytes @ 0xE0001000) (0039ms, 0861ms total)
T0B24 044:074 JLINK_ReadReg(R15 (PC))  returns 0x08000146 (0000ms, 0861ms total)
T0B24 044:074 JLINK_ReadReg(XPSR)  returns 0x01000000 (0000ms, 0861ms total)
T0B24 044:074 JLINK_ReadMemU32(0xE0001004, 0x0001 Items, ...) -- CPU_ReadMem(4 bytes @ 0xE0001004) - Data: 77 23 00 00  returns 0x01 (0001ms, 0862ms total)
T21E8 061:742 JLINK_SetBPEx(Addr = 0x08002206, Type = 0xFFFFFFF2)  returns 0x00000002 (0000ms, 0862ms total)
T21E8 061:742 JLINK_Go() -- CPU_ReadMem(4 bytes @ 0xE0001000) -- CPU_WriteMem(4 bytes @ 0xE0002008) -- CPU_WriteMem(4 bytes @ 0xE000200C) -- CPU_WriteMem(4 bytes @ 0xE0002010) -- CPU_WriteMem(4 bytes @ 0xE0002014) -- CPU_WriteMem(4 bytes @ 0xE0002018) -- CPU_WriteMem(4 bytes @ 0xE000201C) -- CPU_WriteMem(4 bytes @ 0xE0001004) (0006ms, 0868ms total)
T21E8 061:849 JLINK_IsHalted()  returns TRUE (0003ms, 0872ms total)
T21E8 061:852 JLINK_Halt()  returns 0x00 (0000ms, 0869ms total)
T21E8 061:852 JLINK_IsHalted()  returns TRUE (0000ms, 0869ms total)
T21E8 061:852 JLINK_IsHalted()  returns TRUE (0000ms, 0869ms total)
T21E8 061:852 JLINK_IsHalted()  returns TRUE (0000ms, 0869ms total)
T21E8 061:852 JLINK_ReadReg(R15 (PC))  returns 0x08002206 (0000ms, 0869ms total)
T21E8 061:853 JLINK_ReadReg(XPSR)  returns 0x0100000E (0000ms, 0870ms total)
T21E8 061:853 JLINK_ClrBPEx(BPHandle = 0x00000002)  returns 0x00 (0000ms, 0870ms total)
T21E8 061:853 JLINK_ReadMemU32(0xE000ED30, 0x0001 Items, ...) -- CPU_ReadMem(4 bytes @ 0xE000ED30) - Data: 02 00 00 00  returns 0x01 (0001ms, 0871ms total)
T21E8 061:854 JLINK_ReadMemU32(0xE0001028, 0x0001 Items, ...) -- CPU_ReadMem(4 bytes @ 0xE0001028) - Data: 00 00 00 00  returns 0x01 (0001ms, 0872ms total)
T21E8 061:855 JLINK_ReadMemU32(0xE0001038, 0x0001 Items, ...) -- CPU_ReadMem(4 bytes @ 0xE0001038) - Data: 00 02 00 00  returns 0x01 (0001ms, 0873ms total)
T21E8 061:856 JLINK_ReadMemU32(0xE0001048, 0x0001 Items, ...) -- CPU_ReadMem(4 bytes @ 0xE0001048) - Data: 00 00 00 00  returns 0x01 (0001ms, 0874ms total)
T21E8 061:857 JLINK_ReadMemU32(0xE0001058, 0x0001 Items, ...) -- CPU_ReadMem(4 bytes @ 0xE0001058) - Data: 00 00 00 00  returns 0x01 (0001ms, 0875ms total)
T21E8 061:858 JLINK_ReadReg(R0)  returns 0xE000ED04 (0000ms, 0875ms total)
T21E8 061:858 JLINK_ReadReg(R1)  returns 0x10000000 (0000ms, 0875ms total)
T21E8 061:858 JLINK_ReadReg(R2)  returns 0x2000002C (0000ms, 0875ms total)
T21E8 061:858 JLINK_ReadReg(R3)  returns 0x00000000 (0000ms, 0875ms total)
T21E8 061:858 JLINK_ReadReg(R4)  returns 0x080024C0 (0000ms, 0875ms total)
T21E8 061:858 JLINK_ReadReg(R5)  returns 0x080024C0 (0001ms, 0876ms total)
T21E8 061:859 JLINK_ReadReg(R6)  returns 0x06060606 (0000ms, 0876ms total)
T21E8 061:859 JLINK_ReadReg(R7)  returns 0x07070707 (0000ms, 0876ms total)
T21E8 061:859 JLINK_ReadReg(R8)  returns 0x08080808 (0000ms, 0876ms total)
T21E8 061:859 JLINK_ReadReg(R9)  returns 0x09090909 (0000ms, 0876ms total)
T21E8 061:859 JLINK_ReadReg(R10)  returns 0x10101010 (0000ms, 0876ms total)
T21E8 061:859 JLINK_ReadReg(R11)  returns 0x11111111 (0000ms, 0876ms total)
T21E8 061:859 JLINK_ReadReg(R12)  returns 0x00000400 (0000ms, 0876ms total)
T21E8 061:859 JLINK_ReadReg(R13 (SP))  returns 0x200011E0 (0000ms, 0876ms total)
T21E8 061:859 JLINK_ReadReg(R14)  returns 0xFFFFFFF9 (0000ms, 0876ms total)
T21E8 061:859 JLINK_ReadReg(R15 (PC))  returns 0x08002206 (0000ms, 0876ms total)
T21E8 061:859 JLINK_ReadReg(XPSR)  returns 0x0100000E (0000ms, 0876ms total)
T21E8 061:859 JLINK_ReadReg(MSP)  returns 0x200011E0 (0000ms, 0876ms total)
T21E8 061:859 JLINK_ReadReg(PSP)  returns 0x00000000 (0000ms, 0876ms total)
T21E8 061:859 JLINK_ReadReg(CFBP)  returns 0x00000000 (0000ms, 0876ms total)
T0B24 061:859 JLINK_ReadMem (0x200011F8, 0x0004 Bytes, ...) -- CPU_ReadMem(64 bytes @ 0x200011C0) -- Updating C cache (64 bytes @ 0x200011C0) -- Read from C cache (4 bytes @ 0x200011F8) - Data: F0 21 00 08  returns 0x00 (0002ms, 0878ms total)
T0B24 061:861 JLINK_ReadMem (0x200011FC, 0x0004 Bytes, ...) -- Read from C cache (4 bytes @ 0x200011FC) - Data: 00 00 00 01  returns 0x00 (0000ms, 0878ms total)
T0B24 061:861 JLINK_ReadMem (0x200011F4, 0x0004 Bytes, ...) -- Read from C cache (4 bytes @ 0x200011F4) - Data: A3 14 00 08  returns 0x00 (0000ms, 0878ms total)
T0B24 061:861 JLINK_ReadMem (0xE000ED28, 0x0004 Bytes, ...) -- CPU_ReadMem(4 bytes @ 0xE000ED28) - Data: 00 00 00 00  returns 0x00 (0001ms, 0879ms total)
T0B24 061:870 JLINK_ReadMemU32(0xE0001004, 0x0001 Items, ...) -- CPU_ReadMem(4 bytes @ 0xE0001004) - Data: FB 96 00 00  returns 0x01 (0001ms, 0880ms total)
T0B24 061:874 JLINK_ReadMem (0x08002204, 0x003C Bytes, ...) -- CPU_ReadMem(64 bytes @ 0x08002200) -- Updating C cache (64 bytes @ 0x08002200) -- Read from C cache (60 bytes @ 0x08002204) - Data: 70 47 72 B6 EF F3 09 80 28 B1 20 38 80 E8 F0 0F ...  returns 0x00 (0002ms, 0882ms total)
T21E8 327:162 JLINK_Step() -- Read from C cache (2 bytes @ 0x08002206) -- CPU_ReadMem(4 bytes @ 0xE000ED18) -- CPU_WriteMem(4 bytes @ 0xE000ED18) -- CPU_ReadMem(4 bytes @ 0xE000ED18) -- CPU_WriteMem(4 bytes @ 0xE000ED18) -- Not simulated -- CPU_WriteMem(4 bytes @ 0xE0002008)  returns 0x00 (0014ms, 0896ms total)
T21E8 327:176 JLINK_ReadReg(R15 (PC))  returns 0x08002208 (0000ms, 0896ms total)
T21E8 327:176 JLINK_ReadReg(XPSR)  returns 0x0100000E (0000ms, 0896ms total)
T21E8 327:176 JLINK_ReadReg(R0)  returns 0xE000ED04 (0000ms, 0896ms total)
T21E8 327:176 JLINK_ReadReg(R1)  returns 0x10000000 (0000ms, 0896ms total)
T21E8 327:176 JLINK_ReadReg(R2)  returns 0x2000002C (0000ms, 0896ms total)
T21E8 327:176 JLINK_ReadReg(R3)  returns 0x00000000 (0000ms, 0896ms total)
T21E8 327:176 JLINK_ReadReg(R4)  returns 0x080024C0 (0000ms, 0896ms total)
T21E8 327:176 JLINK_ReadReg(R5)  returns 0x080024C0 (0000ms, 0896ms total)
T21E8 327:176 JLINK_ReadReg(R6)  returns 0x06060606 (0000ms, 0896ms total)
T21E8 327:176 JLINK_ReadReg(R7)  returns 0x07070707 (0000ms, 0896ms total)
T21E8 327:176 JLINK_ReadReg(R8)  returns 0x08080808 (0000ms, 0896ms total)
T21E8 327:176 JLINK_ReadReg(R9)  returns 0x09090909 (0000ms, 0896ms total)
T21E8 327:176 JLINK_ReadReg(R10)  returns 0x10101010 (0000ms, 0896ms total)
T21E8 327:176 JLINK_ReadReg(R11)  returns 0x11111111 (0000ms, 0896ms total)
T21E8 327:176 JLINK_ReadReg(R12)  returns 0x00000400 (0000ms, 0896ms total)
T21E8 327:176 JLINK_ReadReg(R13 (SP))  returns 0x200011E0 (0000ms, 0896ms total)
T21E8 327:176 JLINK_ReadReg(R14)  returns 0xFFFFFFF9 (0000ms, 0896ms total)
T21E8 327:176 JLINK_ReadReg(R15 (PC))  returns 0x08002208 (0000ms, 0896ms total)
T21E8 327:176 JLINK_ReadReg(XPSR)  returns 0x0100000E (0000ms, 0896ms total)
T21E8 327:176 JLINK_ReadReg(MSP)  returns 0x200011E0 (0000ms, 0896ms total)
T21E8 327:176 JLINK_ReadReg(PSP)  returns 0x00000000 (0000ms, 0896ms total)
T21E8 327:176 JLINK_ReadReg(CFBP)  returns 0x00000001 (0000ms, 0896ms total)
T0B24 327:176 JLINK_ReadMem (0x200011F8, 0x0004 Bytes, ...) -- CPU_ReadMem(64 bytes @ 0x200011C0) -- Updating C cache (64 bytes @ 0x200011C0) -- Read from C cache (4 bytes @ 0x200011F8) - Data: F0 21 00 08  returns 0x00 (0002ms, 0898ms total)
T0B24 327:178 JLINK_ReadMem (0x200011FC, 0x0004 Bytes, ...) -- Read from C cache (4 bytes @ 0x200011FC) - Data: 00 00 00 01  returns 0x00 (0000ms, 0898ms total)
T0B24 327:178 JLINK_ReadMem (0x200011F4, 0x0004 Bytes, ...) -- Read from C cache (4 bytes @ 0x200011F4) - Data: A3 14 00 08  returns 0x00 (0000ms, 0898ms total)
T0B24 327:178 JLINK_ReadMem (0xE000ED28, 0x0004 Bytes, ...) -- CPU_ReadMem(4 bytes @ 0xE000ED28) - Data: 00 00 00 00  returns 0x00 (0001ms, 0899ms total)
T0B24 327:179 JLINK_ReadMemU32(0xE0001004, 0x0001 Items, ...) -- CPU_ReadMem(4 bytes @ 0xE0001004) - Data: FD 96 00 00  returns 0x01 (0001ms, 0900ms total)
T0B24 327:184 JLINK_ReadMem (0x08002204, 0x003C Bytes, ...) -- CPU_ReadMem(64 bytes @ 0x08002200) -- Updating C cache (64 bytes @ 0x08002200) -- Read from C cache (60 bytes @ 0x08002204) - Data: 70 47 72 B6 EF F3 09 80 28 B1 20 38 80 E8 F0 0F ...  returns 0x00 (0001ms, 0901ms total)
T21E8 333:353 JLINK_Step() -- Read from C cache (2 bytes @ 0x08002208) -- Read from C cache (2 bytes @ 0x0800220A) -- Not simulated  returns 0x00 (0005ms, 0907ms total)
T21E8 333:358 JLINK_ReadReg(R15 (PC))  returns 0x0800220C (0000ms, 0907ms total)
T21E8 333:358 JLINK_ReadReg(XPSR)  returns 0x0100000E (0000ms, 0907ms total)
T21E8 333:358 JLINK_ReadReg(R0)  returns 0x00000000 (0000ms, 0907ms total)
T21E8 333:358 JLINK_ReadReg(R1)  returns 0x10000000 (0000ms, 0907ms total)
T21E8 333:358 JLINK_ReadReg(R2)  returns 0x2000002C (0000ms, 0907ms total)
T21E8 333:358 JLINK_ReadReg(R3)  returns 0x00000000 (0000ms, 0907ms total)
T21E8 333:358 JLINK_ReadReg(R4)  returns 0x080024C0 (0000ms, 0907ms total)
T21E8 333:358 JLINK_ReadReg(R5)  returns 0x080024C0 (0000ms, 0907ms total)
T21E8 333:358 JLINK_ReadReg(R6)  returns 0x06060606 (0000ms, 0907ms total)
T21E8 333:358 JLINK_ReadReg(R7)  returns 0x07070707 (0001ms, 0908ms total)
T21E8 333:359 JLINK_ReadReg(R8)  returns 0x08080808 (0000ms, 0908ms total)
T21E8 333:359 JLINK_ReadReg(R9)  returns 0x09090909 (0000ms, 0908ms total)
T21E8 333:359 JLINK_ReadReg(R10)  returns 0x10101010 (0000ms, 0908ms total)
T21E8 333:359 JLINK_ReadReg(R11)  returns 0x11111111 (0000ms, 0908ms total)
T21E8 333:359 JLINK_ReadReg(R12)  returns 0x00000400 (0000ms, 0908ms total)
T21E8 333:359 JLINK_ReadReg(R13 (SP))  returns 0x200011E0 (0000ms, 0908ms total)
T21E8 333:359 JLINK_ReadReg(R14)  returns 0xFFFFFFF9 (0000ms, 0908ms total)
T21E8 333:359 JLINK_ReadReg(R15 (PC))  returns 0x0800220C (0000ms, 0908ms total)
T21E8 333:359 JLINK_ReadReg(XPSR)  returns 0x0100000E (0000ms, 0908ms total)
T21E8 333:359 JLINK_ReadReg(MSP)  returns 0x200011E0 (0000ms, 0908ms total)
T21E8 333:359 JLINK_ReadReg(PSP)  returns 0x00000000 (0000ms, 0908ms total)
T21E8 333:359 JLINK_ReadReg(CFBP)  returns 0x00000001 (0000ms, 0908ms total)
T0B24 333:360 JLINK_ReadMem (0x200011F8, 0x0004 Bytes, ...) -- CPU_ReadMem(64 bytes @ 0x200011C0) -- Updating C cache (64 bytes @ 0x200011C0) -- Read from C cache (4 bytes @ 0x200011F8) - Data: F0 21 00 08  returns 0x00 (0001ms, 0909ms total)
T0B24 333:361 JLINK_ReadMem (0x200011FC, 0x0004 Bytes, ...) -- Read from C cache (4 bytes @ 0x200011FC) - Data: 00 00 00 01  returns 0x00 (0000ms, 0909ms total)
T0B24 333:361 JLINK_ReadMem (0x200011F4, 0x0004 Bytes, ...) -- Read from C cache (4 bytes @ 0x200011F4) - Data: A3 14 00 08  returns 0x00 (0000ms, 0909ms total)
T0B24 333:361 JLINK_ReadMem (0xE000ED28, 0x0004 Bytes, ...) -- CPU_ReadMem(4 bytes @ 0xE000ED28) - Data: 00 00 00 00  returns 0x00 (0001ms, 0910ms total)
T0B24 333:362 JLINK_ReadMemU32(0xE0001004, 0x0001 Items, ...) -- CPU_ReadMem(4 bytes @ 0xE0001004) - Data: FE 96 00 00  returns 0x01 (0001ms, 0911ms total)
T0B24 333:366 JLINK_ReadMem (0x08002208, 0x003C Bytes, ...) -- CPU_ReadMem(128 bytes @ 0x08002200) -- Updating C cache (128 bytes @ 0x08002200) -- Read from C cache (60 bytes @ 0x08002208) - Data: EF F3 09 80 28 B1 20 38 80 E8 F0 0F 0F 49 09 68 ...  returns 0x00 (0001ms, 0912ms total)
T21E8 338:637 JLINK_Step() -- Read from C cache (2 bytes @ 0x0800220C) -- Simulated  returns 0x00 (0001ms, 0913ms total)
T21E8 338:638 JLINK_ReadReg(R15 (PC))  returns 0x0800221A (0001ms, 0914ms total)
T21E8 338:639 JLINK_ReadReg(XPSR)  returns 0x0100000E (0000ms, 0914ms total)
T21E8 338:639 JLINK_ReadReg(R0)  returns 0x00000000 (0000ms, 0914ms total)
T21E8 338:639 JLINK_ReadReg(R1)  returns 0x10000000 (0000ms, 0914ms total)
T21E8 338:639 JLINK_ReadReg(R2)  returns 0x2000002C (0000ms, 0914ms total)
T21E8 338:639 JLINK_ReadReg(R3)  returns 0x00000000 (0000ms, 0914ms total)
T21E8 338:639 JLINK_ReadReg(R4)  returns 0x080024C0 (0000ms, 0914ms total)
T21E8 338:639 JLINK_ReadReg(R5)  returns 0x080024C0 (0000ms, 0914ms total)
T21E8 338:639 JLINK_ReadReg(R6)  returns 0x06060606 (0000ms, 0914ms total)
T21E8 338:639 JLINK_ReadReg(R7)  returns 0x07070707 (0000ms, 0914ms total)
T21E8 338:639 JLINK_ReadReg(R8)  returns 0x08080808 (0000ms, 0914ms total)
T21E8 338:639 JLINK_ReadReg(R9)  returns 0x09090909 (0000ms, 0914ms total)
T21E8 338:639 JLINK_ReadReg(R10)  returns 0x10101010 (0000ms, 0914ms total)
T21E8 338:639 JLINK_ReadReg(R11)  returns 0x11111111 (0000ms, 0914ms total)
T21E8 338:639 JLINK_ReadReg(R12)  returns 0x00000400 (0000ms, 0914ms total)
T21E8 338:639 JLINK_ReadReg(R13 (SP))  returns 0x200011E0 (0001ms, 0915ms total)
T21E8 338:640 JLINK_ReadReg(R14)  returns 0xFFFFFFF9 (0000ms, 0915ms total)
T21E8 338:640 JLINK_ReadReg(R15 (PC))  returns 0x0800221A (0000ms, 0915ms total)
T21E8 338:640 JLINK_ReadReg(XPSR)  returns 0x0100000E (0000ms, 0915ms total)
T21E8 338:640 JLINK_ReadReg(MSP)  returns 0x200011E0 (0000ms, 0915ms total)
T21E8 338:640 JLINK_ReadReg(PSP)  returns 0x00000000 (0000ms, 0915ms total)
T21E8 338:640 JLINK_ReadReg(CFBP)  returns 0x00000001 (0000ms, 0915ms total)
T0B24 338:642 JLINK_ReadMem (0x200011F8, 0x0004 Bytes, ...) -- Read from C cache (4 bytes @ 0x200011F8) - Data: F0 21 00 08  returns 0x00 (0000ms, 0915ms total)
T0B24 338:642 JLINK_ReadMem (0x200011FC, 0x0004 Bytes, ...) -- Read from C cache (4 bytes @ 0x200011FC) - Data: 00 00 00 01  returns 0x00 (0000ms, 0915ms total)
T0B24 338:642 JLINK_ReadMem (0x200011F4, 0x0004 Bytes, ...) -- Read from C cache (4 bytes @ 0x200011F4) - Data: A3 14 00 08  returns 0x00 (0000ms, 0915ms total)
T0B24 338:642 JLINK_ReadMem (0xE000ED28, 0x0004 Bytes, ...) -- CPU_ReadMem(4 bytes @ 0xE000ED28) - Data: 00 00 00 00  returns 0x00 (0002ms, 0917ms total)
T0B24 338:644 JLINK_ReadMemU32(0xE0001004, 0x0001 Items, ...) - Data: FE 96 00 00  returns 0x01 (0000ms, 0917ms total)
T0B24 338:647 JLINK_ReadMem (0x08002218, 0x003C Bytes, ...) -- Read from C cache (60 bytes @ 0x08002218) - Data: 08 60 00 B5 0E 48 80 47 5D F8 04 EB 0D 48 0E 49 ...  returns 0x00 (0000ms, 0917ms total)
T0B24 354:764 JLINK_ReadMem (0x20000036, 0x0001 Bytes, ...) -- CPU_ReadMem(64 bytes @ 0x20000000) -- Updating C cache (64 bytes @ 0x20000000) -- Read from C cache (1 bytes @ 0x20000036) - Data: 01  returns 0x00 (0002ms, 0919ms total)
T21E8 414:710 JLINK_Step() -- Read from C cache (2 bytes @ 0x0800221A) -- CPU_WriteMem(4 bytes @ 0x200011DC) -- Simulated  returns 0x00 (0002ms, 0921ms total)
T21E8 414:712 JLINK_ReadReg(R15 (PC))  returns 0x0800221C (0000ms, 0921ms total)
T21E8 414:712 JLINK_ReadReg(XPSR)  returns 0x0100000E (0000ms, 0921ms total)
T21E8 414:712 JLINK_ReadReg(R0)  returns 0x00000000 (0000ms, 0921ms total)
T21E8 414:712 JLINK_ReadReg(R1)  returns 0x10000000 (0000ms, 0921ms total)
T21E8 414:712 JLINK_ReadReg(R2)  returns 0x2000002C (0000ms, 0921ms total)
T21E8 414:712 JLINK_ReadReg(R3)  returns 0x00000000 (0000ms, 0921ms total)
T21E8 414:712 JLINK_ReadReg(R4)  returns 0x080024C0 (0000ms, 0921ms total)
T21E8 414:712 JLINK_ReadReg(R5)  returns 0x080024C0 (0000ms, 0921ms total)
T21E8 414:712 JLINK_ReadReg(R6)  returns 0x06060606 (0000ms, 0921ms total)
T21E8 414:712 JLINK_ReadReg(R7)  returns 0x07070707 (0000ms, 0921ms total)
T21E8 414:712 JLINK_ReadReg(R8)  returns 0x08080808 (0000ms, 0921ms total)
T21E8 414:712 JLINK_ReadReg(R9)  returns 0x09090909 (0000ms, 0921ms total)
T21E8 414:712 JLINK_ReadReg(R10)  returns 0x10101010 (0000ms, 0921ms total)
T21E8 414:712 JLINK_ReadReg(R11)  returns 0x11111111 (0000ms, 0921ms total)
T21E8 414:712 JLINK_ReadReg(R12)  returns 0x00000400 (0000ms, 0921ms total)
T21E8 414:712 JLINK_ReadReg(R13 (SP))  returns 0x200011DC (0000ms, 0921ms total)
T21E8 414:712 JLINK_ReadReg(R14)  returns 0xFFFFFFF9 (0000ms, 0921ms total)
T21E8 414:712 JLINK_ReadReg(R15 (PC))  returns 0x0800221C (0000ms, 0921ms total)
T21E8 414:712 JLINK_ReadReg(XPSR)  returns 0x0100000E (0000ms, 0921ms total)
T21E8 414:712 JLINK_ReadReg(MSP)  returns 0x200011DC (0000ms, 0921ms total)
T21E8 414:712 JLINK_ReadReg(PSP)  returns 0x00000000 (0000ms, 0921ms total)
T21E8 414:712 JLINK_ReadReg(CFBP)  returns 0x00000001 (0000ms, 0921ms total)
T0B24 414:713 JLINK_ReadMem (0x200011F4, 0x0004 Bytes, ...) -- CPU_ReadMem(64 bytes @ 0x200011C0) -- Updating C cache (64 bytes @ 0x200011C0) -- Read from C cache (4 bytes @ 0x200011F4) - Data: A3 14 00 08  returns 0x00 (0001ms, 0922ms total)
T0B24 414:714 JLINK_ReadMem (0x200011F8, 0x0004 Bytes, ...) -- Read from C cache (4 bytes @ 0x200011F8) - Data: F0 21 00 08  returns 0x00 (0000ms, 0922ms total)
T0B24 414:714 JLINK_ReadMem (0x200011F0, 0x0004 Bytes, ...) -- Read from C cache (4 bytes @ 0x200011F0) - Data: 00 04 00 00  returns 0x00 (0000ms, 0922ms total)
T0B24 414:714 JLINK_ReadMem (0xE000ED28, 0x0004 Bytes, ...) -- CPU_ReadMem(4 bytes @ 0xE000ED28) - Data: 00 00 00 00  returns 0x00 (0001ms, 0923ms total)
T0B24 414:716 JLINK_ReadMem (0x20001200, 0x0004 Bytes, ...) -- CPU_ReadMem(64 bytes @ 0x20001200) -- Updating C cache (64 bytes @ 0x20001200) -- Read from C cache (4 bytes @ 0x20001200) - Data: C0 24 00 08  returns 0x00 (0001ms, 0924ms total)
T0B24 414:717 JLINK_ReadMem (0x200011FC, 0x0004 Bytes, ...) -- Read from C cache (4 bytes @ 0x200011FC) - Data: 00 00 00 01  returns 0x00 (0000ms, 0924ms total)
T0B24 414:724 JLINK_ReadMemU32(0xE0001004, 0x0001 Items, ...) - Data: FE 96 00 00  returns 0x01 (0000ms, 0924ms total)
T0B24 414:728 JLINK_ReadMem (0x08002218, 0x003C Bytes, ...) -- Read from C cache (60 bytes @ 0x08002218) - Data: 08 60 00 B5 0E 48 80 47 5D F8 04 EB 0D 48 0E 49 ...  returns 0x00 (0000ms, 0924ms total)
T0B24 418:209 JLINK_ReadMem (0x2000002B, 0x0001 Bytes, ...) -- Read from C cache (1 bytes @ 0x2000002B) - Data: 04  returns 0x00 (0000ms, 0924ms total)
T21E8 487:183 JLINK_Step() -- Read from C cache (2 bytes @ 0x0800221C) -- Read from C cache (4 bytes @ 0x08002258) -- Simulated  returns 0x00 (0001ms, 0925ms total)
T21E8 487:184 JLINK_ReadReg(R15 (PC))  returns 0x0800221E (0000ms, 0925ms total)
T21E8 487:184 JLINK_ReadReg(XPSR)  returns 0x0100000E (0000ms, 0925ms total)
T21E8 487:185 JLINK_ReadReg(R0)  returns 0x08002311 (0000ms, 0925ms total)
T21E8 487:185 JLINK_ReadReg(R1)  returns 0x10000000 (0000ms, 0925ms total)
T21E8 487:185 JLINK_ReadReg(R2)  returns 0x2000002C (0000ms, 0925ms total)
T21E8 487:185 JLINK_ReadReg(R3)  returns 0x00000000 (0000ms, 0925ms total)
T21E8 487:185 JLINK_ReadReg(R4)  returns 0x080024C0 (0000ms, 0925ms total)
T21E8 487:185 JLINK_ReadReg(R5)  returns 0x080024C0 (0000ms, 0925ms total)
T21E8 487:185 JLINK_ReadReg(R6)  returns 0x06060606 (0000ms, 0925ms total)
T21E8 487:185 JLINK_ReadReg(R7)  returns 0x07070707 (0000ms, 0925ms total)
T21E8 487:185 JLINK_ReadReg(R8)  returns 0x08080808 (0000ms, 0925ms total)
T21E8 487:185 JLINK_ReadReg(R9)  returns 0x09090909 (0000ms, 0925ms total)
T21E8 487:185 JLINK_ReadReg(R10)  returns 0x10101010 (0000ms, 0925ms total)
T21E8 487:185 JLINK_ReadReg(R11)  returns 0x11111111 (0000ms, 0925ms total)
T21E8 487:185 JLINK_ReadReg(R12)  returns 0x00000400 (0000ms, 0925ms total)
T21E8 487:185 JLINK_ReadReg(R13 (SP))  returns 0x200011DC (0000ms, 0925ms total)
T21E8 487:185 JLINK_ReadReg(R14)  returns 0xFFFFFFF9 (0000ms, 0925ms total)
T21E8 487:185 JLINK_ReadReg(R15 (PC))  returns 0x0800221E (0000ms, 0925ms total)
T21E8 487:185 JLINK_ReadReg(XPSR)  returns 0x0100000E (0000ms, 0925ms total)
T21E8 487:185 JLINK_ReadReg(MSP)  returns 0x200011DC (0000ms, 0925ms total)
T21E8 487:185 JLINK_ReadReg(PSP)  returns 0x00000000 (0000ms, 0925ms total)
T21E8 487:185 JLINK_ReadReg(CFBP)  returns 0x00000001 (0000ms, 0925ms total)
T0B24 487:188 JLINK_ReadMem (0x200011F4, 0x0004 Bytes, ...) -- Read from C cache (4 bytes @ 0x200011F4) - Data: A3 14 00 08  returns 0x00 (0000ms, 0925ms total)
T0B24 487:188 JLINK_ReadMem (0x200011F8, 0x0004 Bytes, ...) -- Read from C cache (4 bytes @ 0x200011F8) - Data: F0 21 00 08  returns 0x00 (0000ms, 0925ms total)
T0B24 487:188 JLINK_ReadMem (0x200011F0, 0x0004 Bytes, ...) -- Read from C cache (4 bytes @ 0x200011F0) - Data: 00 04 00 00  returns 0x00 (0000ms, 0925ms total)
T0B24 487:188 JLINK_ReadMem (0xE000ED28, 0x0004 Bytes, ...) -- CPU_ReadMem(4 bytes @ 0xE000ED28) - Data: 00 00 00 00  returns 0x00 (0002ms, 0927ms total)
T0B24 487:190 JLINK_ReadMem (0x20001200, 0x0004 Bytes, ...) -- Read from C cache (4 bytes @ 0x20001200) - Data: C0 24 00 08  returns 0x00 (0000ms, 0927ms total)
T0B24 487:190 JLINK_ReadMem (0x200011FC, 0x0004 Bytes, ...) -- Read from C cache (4 bytes @ 0x200011FC) - Data: 00 00 00 01  returns 0x00 (0000ms, 0927ms total)
T0B24 487:190 JLINK_ReadMemU32(0xE0001004, 0x0001 Items, ...) - Data: FE 96 00 00  returns 0x01 (0000ms, 0927ms total)
T0B24 487:193 JLINK_ReadMem (0x0800221C, 0x003C Bytes, ...) -- Read from C cache (60 bytes @ 0x0800221C) - Data: 0E 48 80 47 5D F8 04 EB 0D 48 0E 49 0A 78 02 70 ...  returns 0x00 (0000ms, 0927ms total)
T21E8 510:744 JLINK_Step() -- Read from C cache (2 bytes @ 0x0800221E) -- Simulated  returns 0x00 (0001ms, 0928ms total)
T21E8 510:745 JLINK_ReadReg(R15 (PC))  returns 0x08002310 (0001ms, 0929ms total)
T21E8 510:746 JLINK_ReadReg(XPSR)  returns 0x0100000E (0000ms, 0929ms total)
T21E8 510:746 JLINK_ReadReg(R0)  returns 0x08002311 (0000ms, 0929ms total)
T21E8 510:746 JLINK_ReadReg(R1)  returns 0x10000000 (0000ms, 0929ms total)
T21E8 510:746 JLINK_ReadReg(R2)  returns 0x2000002C (0000ms, 0929ms total)
T21E8 510:746 JLINK_ReadReg(R3)  returns 0x00000000 (0000ms, 0929ms total)
T21E8 510:746 JLINK_ReadReg(R4)  returns 0x080024C0 (0000ms, 0929ms total)
T21E8 510:746 JLINK_ReadReg(R5)  returns 0x080024C0 (0000ms, 0929ms total)
T21E8 510:746 JLINK_ReadReg(R6)  returns 0x06060606 (0000ms, 0929ms total)
T21E8 510:746 JLINK_ReadReg(R7)  returns 0x07070707 (0000ms, 0929ms total)
T21E8 510:746 JLINK_ReadReg(R8)  returns 0x08080808 (0000ms, 0929ms total)
T21E8 510:746 JLINK_ReadReg(R9)  returns 0x09090909 (0000ms, 0929ms total)
T21E8 510:746 JLINK_ReadReg(R10)  returns 0x10101010 (0000ms, 0929ms total)
T21E8 510:746 JLINK_ReadReg(R11)  returns 0x11111111 (0000ms, 0929ms total)
T21E8 510:746 JLINK_ReadReg(R12)  returns 0x00000400 (0000ms, 0929ms total)
T21E8 510:746 JLINK_ReadReg(R13 (SP))  returns 0x200011DC (0000ms, 0929ms total)
T21E8 510:746 JLINK_ReadReg(R14)  returns 0x08002221 (0000ms, 0929ms total)
T21E8 510:746 JLINK_ReadReg(R15 (PC))  returns 0x08002310 (0000ms, 0929ms total)
T21E8 510:746 JLINK_ReadReg(XPSR)  returns 0x0100000E (0000ms, 0929ms total)
T21E8 510:746 JLINK_ReadReg(MSP)  returns 0x200011DC (0000ms, 0929ms total)
T21E8 510:746 JLINK_ReadReg(PSP)  returns 0x00000000 (0000ms, 0929ms total)
T21E8 510:746 JLINK_ReadReg(CFBP)  returns 0x00000001 (0000ms, 0929ms total)
T0B24 510:762 JLINK_ReadMemU32(0xE0001004, 0x0001 Items, ...) - Data: FE 96 00 00  returns 0x01 (0000ms, 0929ms total)
T0B24 510:764 JLINK_ReadMem (0x0800230E, 0x0002 Bytes, ...) -- CPU_ReadMem(64 bytes @ 0x08002300) -- Updating C cache (64 bytes @ 0x08002300) -- Read from C cache (2 bytes @ 0x0800230E) - Data: 70 BD  returns 0x00 (0001ms, 0930ms total)
T0B24 510:765 JLINK_ReadMem (0x08002310, 0x003C Bytes, ...) -- CPU_ReadMem(64 bytes @ 0x08002340) -- Updating C cache (64 bytes @ 0x08002340) -- Read from C cache (60 bytes @ 0x08002310) - Data: 70 47 70 47 70 47 00 00 06 4C 07 4D 06 E0 E0 68 ...  returns 0x00 (0001ms, 0931ms total)
T21E8 519:813 JLINK_Step() -- Read from C cache (2 bytes @ 0x08002310) -- Not simulated -- CPU_WriteMem(4 bytes @ 0xE0001004)  returns 0x00 (0007ms, 0938ms total)
T21E8 519:820 JLINK_ReadReg(R15 (PC))  returns 0x08002220 (0000ms, 0938ms total)
T21E8 519:820 JLINK_ReadReg(XPSR)  returns 0x0100000E (0000ms, 0938ms total)
T21E8 519:821 JLINK_ReadReg(R0)  returns 0x08002311 (0000ms, 0938ms total)
T21E8 519:821 JLINK_ReadReg(R1)  returns 0x10000000 (0000ms, 0938ms total)
T21E8 519:821 JLINK_ReadReg(R2)  returns 0x2000002C (0000ms, 0938ms total)
T21E8 519:821 JLINK_ReadReg(R3)  returns 0x00000000 (0000ms, 0938ms total)
T21E8 519:821 JLINK_ReadReg(R4)  returns 0x080024C0 (0000ms, 0938ms total)
T21E8 519:821 JLINK_ReadReg(R5)  returns 0x080024C0 (0000ms, 0938ms total)
T21E8 519:821 JLINK_ReadReg(R6)  returns 0x06060606 (0000ms, 0938ms total)
T21E8 519:821 JLINK_ReadReg(R7)  returns 0x07070707 (0000ms, 0938ms total)
T21E8 519:821 JLINK_ReadReg(R8)  returns 0x08080808 (0000ms, 0938ms total)
T21E8 519:821 JLINK_ReadReg(R9)  returns 0x09090909 (0000ms, 0938ms total)
T21E8 519:821 JLINK_ReadReg(R10)  returns 0x10101010 (0000ms, 0938ms total)
T21E8 519:821 JLINK_ReadReg(R11)  returns 0x11111111 (0000ms, 0938ms total)
T21E8 519:821 JLINK_ReadReg(R12)  returns 0x00000400 (0000ms, 0938ms total)
T21E8 519:821 JLINK_ReadReg(R13 (SP))  returns 0x200011DC (0000ms, 0938ms total)
T21E8 519:821 JLINK_ReadReg(R14)  returns 0x08002221 (0000ms, 0938ms total)
T21E8 519:821 JLINK_ReadReg(R15 (PC))  returns 0x08002220 (0000ms, 0938ms total)
T21E8 519:821 JLINK_ReadReg(XPSR)  returns 0x0100000E (0000ms, 0938ms total)
T21E8 519:821 JLINK_ReadReg(MSP)  returns 0x200011DC (0000ms, 0938ms total)
T21E8 519:821 JLINK_ReadReg(PSP)  returns 0x00000000 (0000ms, 0938ms total)
T21E8 519:821 JLINK_ReadReg(CFBP)  returns 0x00000001 (0000ms, 0938ms total)
T0B24 519:839 JLINK_ReadMemU32(0xE0001004, 0x0001 Items, ...) -- CPU_ReadMem(4 bytes @ 0xE0001004) - Data: 05 97 00 00  returns 0x01 (0002ms, 0940ms total)
T0B24 519:843 JLINK_ReadMem (0x0800221E, 0x0002 Bytes, ...) -- CPU_ReadMem(64 bytes @ 0x08002200) -- Updating C cache (64 bytes @ 0x08002200) -- Read from C cache (2 bytes @ 0x0800221E) - Data: 80 47  returns 0x00 (0001ms, 0941ms total)
T0B24 519:844 JLINK_ReadMem (0x08002220, 0x003C Bytes, ...) -- CPU_ReadMem(64 bytes @ 0x08002240) -- Updating C cache (64 bytes @ 0x08002240) -- Read from C cache (60 bytes @ 0x08002220) - Data: 5D F8 04 EB 0D 48 0E 49 0A 78 02 70 09 48 0D 49 ...  returns 0x00 (0002ms, 0943ms total)
T21E8 521:988 JLINK_Step() -- Read from C cache (2 bytes @ 0x08002220) -- Read from C cache (2 bytes @ 0x08002222) -- Not simulated  returns 0x00 (0005ms, 0948ms total)
T21E8 521:993 JLINK_ReadReg(R15 (PC))  returns 0x08002224 (0000ms, 0948ms total)
T21E8 521:993 JLINK_ReadReg(XPSR)  returns 0x0100000E (0000ms, 0948ms total)
T21E8 521:993 JLINK_ReadReg(R0)  returns 0x08002311 (0000ms, 0948ms total)
T21E8 521:993 JLINK_ReadReg(R1)  returns 0x10000000 (0000ms, 0948ms total)
T21E8 521:993 JLINK_ReadReg(R2)  returns 0x2000002C (0000ms, 0948ms total)
T21E8 521:993 JLINK_ReadReg(R3)  returns 0x00000000 (0000ms, 0948ms total)
T21E8 521:993 JLINK_ReadReg(R4)  returns 0x080024C0 (0000ms, 0948ms total)
T21E8 521:993 JLINK_ReadReg(R5)  returns 0x080024C0 (0000ms, 0948ms total)
T21E8 521:993 JLINK_ReadReg(R6)  returns 0x06060606 (0000ms, 0948ms total)
T21E8 521:993 JLINK_ReadReg(R7)  returns 0x07070707 (0000ms, 0948ms total)
T21E8 521:994 JLINK_ReadReg(R8)  returns 0x08080808 (0000ms, 0949ms total)
T21E8 521:994 JLINK_ReadReg(R9)  returns 0x09090909 (0000ms, 0949ms total)
T21E8 521:994 JLINK_ReadReg(R10)  returns 0x10101010 (0000ms, 0949ms total)
T21E8 521:994 JLINK_ReadReg(R11)  returns 0x11111111 (0000ms, 0949ms total)
T21E8 521:994 JLINK_ReadReg(R12)  returns 0x00000400 (0000ms, 0949ms total)
T21E8 521:994 JLINK_ReadReg(R13 (SP))  returns 0x200011E0 (0000ms, 0949ms total)
T21E8 521:994 JLINK_ReadReg(R14)  returns 0xFFFFFFF9 (0000ms, 0949ms total)
T21E8 521:994 JLINK_ReadReg(R15 (PC))  returns 0x08002224 (0000ms, 0949ms total)
T21E8 521:994 JLINK_ReadReg(XPSR)  returns 0x0100000E (0000ms, 0949ms total)
T21E8 521:994 JLINK_ReadReg(MSP)  returns 0x200011E0 (0000ms, 0949ms total)
T21E8 521:994 JLINK_ReadReg(PSP)  returns 0x00000000 (0000ms, 0949ms total)
T21E8 521:994 JLINK_ReadReg(CFBP)  returns 0x00000001 (0000ms, 0949ms total)
T0B24 521:994 JLINK_ReadMem (0x200011F8, 0x0004 Bytes, ...) -- CPU_ReadMem(64 bytes @ 0x200011C0) -- Updating C cache (64 bytes @ 0x200011C0) -- Read from C cache (4 bytes @ 0x200011F8) - Data: F0 21 00 08  returns 0x00 (0002ms, 0951ms total)
T0B24 521:996 JLINK_ReadMem (0x200011FC, 0x0004 Bytes, ...) -- Read from C cache (4 bytes @ 0x200011FC) - Data: 00 00 00 01  returns 0x00 (0000ms, 0951ms total)
T0B24 521:996 JLINK_ReadMem (0x200011F4, 0x0004 Bytes, ...) -- Read from C cache (4 bytes @ 0x200011F4) - Data: A3 14 00 08  returns 0x00 (0000ms, 0951ms total)
T0B24 521:996 JLINK_ReadMem (0xE000ED28, 0x0004 Bytes, ...) -- CPU_ReadMem(4 bytes @ 0xE000ED28) - Data: 00 00 00 00  returns 0x00 (0001ms, 0952ms total)
T0B24 522:003 JLINK_ReadMemU32(0xE0001004, 0x0001 Items, ...) -- CPU_ReadMem(4 bytes @ 0xE0001004) - Data: 07 97 00 00  returns 0x01 (0002ms, 0954ms total)
T0B24 522:015 JLINK_ReadMem (0x08002224, 0x003C Bytes, ...) -- CPU_ReadMem(128 bytes @ 0x08002200) -- Updating C cache (128 bytes @ 0x08002200) -- Read from C cache (60 bytes @ 0x08002224) - Data: 0D 48 0E 49 0A 78 02 70 09 48 0D 49 0A 68 02 60 ...  returns 0x00 (0001ms, 0955ms total)
T21E8 539:882 JLINK_Step() -- Read from C cache (2 bytes @ 0x08002224) -- Read from C cache (4 bytes @ 0x0800225C) -- Simulated  returns 0x00 (0001ms, 0956ms total)
T21E8 539:883 JLINK_ReadReg(R15 (PC))  returns 0x08002226 (0000ms, 0956ms total)
T21E8 539:883 JLINK_ReadReg(XPSR)  returns 0x0100000E (0000ms, 0956ms total)
T21E8 539:884 JLINK_ReadReg(R0)  returns 0x2000002B (0000ms, 0956ms total)
T21E8 539:884 JLINK_ReadReg(R1)  returns 0x10000000 (0000ms, 0956ms total)
T21E8 539:884 JLINK_ReadReg(R2)  returns 0x2000002C (0000ms, 0956ms total)
T21E8 539:884 JLINK_ReadReg(R3)  returns 0x00000000 (0000ms, 0956ms total)
T21E8 539:884 JLINK_ReadReg(R4)  returns 0x080024C0 (0000ms, 0956ms total)
T21E8 539:884 JLINK_ReadReg(R5)  returns 0x080024C0 (0000ms, 0956ms total)
T21E8 539:884 JLINK_ReadReg(R6)  returns 0x06060606 (0000ms, 0956ms total)
T21E8 539:884 JLINK_ReadReg(R7)  returns 0x07070707 (0000ms, 0956ms total)
T21E8 539:884 JLINK_ReadReg(R8)  returns 0x08080808 (0000ms, 0956ms total)
T21E8 539:884 JLINK_ReadReg(R9)  returns 0x09090909 (0000ms, 0956ms total)
T21E8 539:884 JLINK_ReadReg(R10)  returns 0x10101010 (0000ms, 0956ms total)
T21E8 539:884 JLINK_ReadReg(R11)  returns 0x11111111 (0000ms, 0956ms total)
T21E8 539:884 JLINK_ReadReg(R12)  returns 0x00000400 (0000ms, 0956ms total)
T21E8 539:884 JLINK_ReadReg(R13 (SP))  returns 0x200011E0 (0000ms, 0956ms total)
T21E8 539:884 JLINK_ReadReg(R14)  returns 0xFFFFFFF9 (0000ms, 0956ms total)
T21E8 539:884 JLINK_ReadReg(R15 (PC))  returns 0x08002226 (0000ms, 0956ms total)
T21E8 539:884 JLINK_ReadReg(XPSR)  returns 0x0100000E (0000ms, 0956ms total)
T21E8 539:884 JLINK_ReadReg(MSP)  returns 0x200011E0 (0000ms, 0956ms total)
T21E8 539:884 JLINK_ReadReg(PSP)  returns 0x00000000 (0000ms, 0956ms total)
T21E8 539:884 JLINK_ReadReg(CFBP)  returns 0x00000001 (0001ms, 0957ms total)
T0B24 539:887 JLINK_ReadMem (0x200011F8, 0x0004 Bytes, ...) -- Read from C cache (4 bytes @ 0x200011F8) - Data: F0 21 00 08  returns 0x00 (0000ms, 0957ms total)
T0B24 539:887 JLINK_ReadMem (0x200011FC, 0x0004 Bytes, ...) -- Read from C cache (4 bytes @ 0x200011FC) - Data: 00 00 00 01  returns 0x00 (0000ms, 0957ms total)
T0B24 539:887 JLINK_ReadMem (0x200011F4, 0x0004 Bytes, ...) -- Read from C cache (4 bytes @ 0x200011F4) - Data: A3 14 00 08  returns 0x00 (0001ms, 0958ms total)
T0B24 539:888 JLINK_ReadMem (0xE000ED28, 0x0004 Bytes, ...) -- CPU_ReadMem(4 bytes @ 0xE000ED28) - Data: 00 00 00 00  returns 0x00 (0001ms, 0959ms total)
T0B24 539:889 JLINK_ReadMemU32(0xE0001004, 0x0001 Items, ...) - Data: 07 97 00 00  returns 0x01 (0000ms, 0959ms total)
T0B24 539:898 JLINK_ReadMem (0x08002224, 0x003C Bytes, ...) -- Read from C cache (60 bytes @ 0x08002224) - Data: 0D 48 0E 49 0A 78 02 70 09 48 0D 49 0A 68 02 60 ...  returns 0x00 (0000ms, 0959ms total)
T21E8 542:023 JLINK_Step() -- Read from C cache (2 bytes @ 0x08002226) -- Read from C cache (4 bytes @ 0x08002260) -- Simulated  returns 0x00 (0001ms, 0960ms total)
T21E8 542:024 JLINK_ReadReg(R15 (PC))  returns 0x08002228 (0000ms, 0960ms total)
T21E8 542:024 JLINK_ReadReg(XPSR)  returns 0x0100000E (0000ms, 0960ms total)
T21E8 542:024 JLINK_ReadReg(R0)  returns 0x2000002B (0000ms, 0960ms total)
T21E8 542:024 JLINK_ReadReg(R1)  returns 0x2000002C (0000ms, 0960ms total)
T21E8 542:024 JLINK_ReadReg(R2)  returns 0x2000002C (0000ms, 0960ms total)
T21E8 542:024 JLINK_ReadReg(R3)  returns 0x00000000 (0000ms, 0960ms total)
T21E8 542:024 JLINK_ReadReg(R4)  returns 0x080024C0 (0000ms, 0960ms total)
T21E8 542:024 JLINK_ReadReg(R5)  returns 0x080024C0 (0001ms, 0961ms total)
T21E8 542:025 JLINK_ReadReg(R6)  returns 0x06060606 (0000ms, 0961ms total)
T21E8 542:025 JLINK_ReadReg(R7)  returns 0x07070707 (0000ms, 0961ms total)
T21E8 542:025 JLINK_ReadReg(R8)  returns 0x08080808 (0000ms, 0961ms total)
T21E8 542:025 JLINK_ReadReg(R9)  returns 0x09090909 (0000ms, 0961ms total)
T21E8 542:025 JLINK_ReadReg(R10)  returns 0x10101010 (0000ms, 0961ms total)
T21E8 542:025 JLINK_ReadReg(R11)  returns 0x11111111 (0000ms, 0961ms total)
T21E8 542:025 JLINK_ReadReg(R12)  returns 0x00000400 (0000ms, 0961ms total)
T21E8 542:025 JLINK_ReadReg(R13 (SP))  returns 0x200011E0 (0000ms, 0961ms total)
T21E8 542:025 JLINK_ReadReg(R14)  returns 0xFFFFFFF9 (0000ms, 0961ms total)
T21E8 542:025 JLINK_ReadReg(R15 (PC))  returns 0x08002228 (0000ms, 0961ms total)
T21E8 542:025 JLINK_ReadReg(XPSR)  returns 0x0100000E (0000ms, 0961ms total)
T21E8 542:025 JLINK_ReadReg(MSP)  returns 0x200011E0 (0000ms, 0961ms total)
T21E8 542:025 JLINK_ReadReg(PSP)  returns 0x00000000 (0000ms, 0961ms total)
T21E8 542:025 JLINK_ReadReg(CFBP)  returns 0x00000001 (0000ms, 0961ms total)
T0B24 542:028 JLINK_ReadMem (0x200011F8, 0x0004 Bytes, ...) -- Read from C cache (4 bytes @ 0x200011F8) - Data: F0 21 00 08  returns 0x00 (0001ms, 0962ms total)
T0B24 542:029 JLINK_ReadMem (0x200011FC, 0x0004 Bytes, ...) -- Read from C cache (4 bytes @ 0x200011FC) - Data: 00 00 00 01  returns 0x00 (0000ms, 0962ms total)
T0B24 542:029 JLINK_ReadMem (0x200011F4, 0x0004 Bytes, ...) -- Read from C cache (4 bytes @ 0x200011F4) - Data: A3 14 00 08  returns 0x00 (0000ms, 0962ms total)
T0B24 542:029 JLINK_ReadMem (0xE000ED28, 0x0004 Bytes, ...) -- CPU_ReadMem(4 bytes @ 0xE000ED28) - Data: 00 00 00 00  returns 0x00 (0001ms, 0963ms total)
T0B24 542:030 JLINK_ReadMemU32(0xE0001004, 0x0001 Items, ...) - Data: 07 97 00 00  returns 0x01 (0000ms, 0963ms total)
T0B24 542:041 JLINK_ReadMem (0x08002228, 0x003C Bytes, ...) -- Read from C cache (60 bytes @ 0x08002228) - Data: 0A 78 02 70 09 48 0D 49 0A 68 02 60 10 68 90 E8 ...  returns 0x00 (0000ms, 0963ms total)
T21E8 555:282 JLINK_Step() -- Read from C cache (2 bytes @ 0x08002228) -- CPU_ReadMem(64 bytes @ 0x20000000) -- Updating C cache (64 bytes @ 0x20000000) -- Read from C cache (1 bytes @ 0x2000002C) -- Simulated  returns 0x00 (0002ms, 0965ms total)
T21E8 555:284 JLINK_ReadReg(R15 (PC))  returns 0x0800222A (0000ms, 0965ms total)
